T4CC8 000:017.685   SEGGER J-Link V6.70e Log File
T4CC8 000:017.864   DLL Compiled: Apr 17 2020 17:55:05
T4CC8 000:017.879   Logging started @ 2020-10-20 08:49
T4CC8 000:017.899 JLINK_SetWarnOutHandler(...)
T4CC8 000:017.918 - 0.025ms
T4CC8 000:017.941 JLINK_OpenEx(...)
T4CC8 000:020.319   Firmware: J-Link V10 compiled Jun  9 2020 13:38:07
T4CC8 000:020.644   Decompressing FW timestamp took 235 us
T4CC8 000:023.150   Hardware: V10.10
T4CC8 000:023.235   S/N: 50116470
T4CC8 000:023.284   OEM: SEGGER
T4CC8 000:023.307   Feature(s): GDB
T4CC8 000:025.416   TELNET listener socket opened on port 19021
T4CC8 000:025.798   WEBSRV Starting webserver
T4CC8 000:026.222   WEBSRV Webserver running on local port 19080
T4CC8 000:026.279 - 8.346ms returns "O.K."
T4CC8 000:026.316 JLINK_GetEmuCaps()
T4CC8 000:026.334 - 0.026ms returns 0xB9FF7BBF
T4CC8 000:026.360 JLINK_TIF_GetAvailable(...)
T4CC8 000:026.561 - 0.227ms
T4CC8 000:026.600 JLINK_SetErrorOutHandler(...)
T4CC8 000:026.616 - 0.022ms
T4CC8 000:026.653 JLINK_ExecCommand("ProjectFile = "C:\Users\nxf48054\Desktop\pytorch\glow\eIQ Glow EAR2.1 RT1060\SDK_2.8.1_EVK-MIMXRT1060\boards\evkmimxrt1060\demo_apps\soft_i2c\mdk\JLinkSettings.ini"", ...). 
T4CC8 000:043.795   Ref file found at: C:\Keil_v5\ARM\Segger\JLinkDevices.ref
T4CC8 000:044.014   XML referenced by ref file: C:\Program Files (x86)\SEGGER\JLink\JLinkDevices.xml
T4CC8 000:045.041   C:\Program Files (x86)\SEGGER\JLink\JLinkDevices.xml evaluated successfully.
T4CC8 000:114.508 - 87.889ms returns 0x00
T4CC8 000:114.632 JLINK_ExecCommand("Device = MIMXRT1062DVL6A", ...). 
T4CC8 000:116.894   Device "MIMXRT1062XXX6A" selected.
T4CC8 000:118.216 - 3.565ms returns 0x00
T4CC8 000:118.247 JLINK_ExecCommand("DisableConnectionTimeout", ...). 
T4CC8 000:118.270 - 0.010ms returns 0x01
T4CC8 000:118.288 JLINK_GetHardwareVersion()
T4CC8 000:118.303 - 0.022ms returns 0x18A88
T4CC8 000:118.321 JLINK_GetDLLVersion()  returns 67005
T4CC8 000:118.347 JLINK_GetFirmwareString(...)
T4CC8 000:118.362 - 0.022ms
T4CC8 000:118.401 JLINK_GetDLLVersion()  returns 67005
T4CC8 000:118.419 JLINK_GetCompileDateTime()
T4CC8 000:118.434 - 0.021ms
T4CC8 000:118.459 JLINK_GetFirmwareString(...)
T4CC8 000:118.475 - 0.022ms
T4CC8 000:118.497 JLINK_GetHardwareVersion()
T4CC8 000:118.513 - 0.023ms returns 0x18A88
T4CC8 000:118.558 JLINK_TIF_Select(JLINKARM_TIF_SWD)
T4CC8 000:119.362 - 0.816ms returns 0x00
T4CC8 000:119.411 JLINK_SetSpeed(5000)
T4CC8 000:119.490 - 0.090ms
T4CC8 000:119.516 JLINK_GetId()
T4CC8 000:119.830   InitTarget() start
T4CC8 000:119.858    J-Link Script File: Executing InitTarget()
T4CC8 000:119.895   InitTarget()
T4CC8 000:122.357   _TargetHalt: CPU halted
T4CC8 000:122.398   InitTarget() end
T4CC8 000:122.909   Found SW-DP with ID 0x0BD11477
T4CC8 000:124.406   DPIDR: 0x0BD11477
T4CC8 000:124.463   Scanning AP map to find all available APs
T4CC8 000:124.956   AP[1]: Stopped AP scan as end of AP map has been reached
T4CC8 000:124.994   AP[0]: AHB-AP (IDR: 0x04770041)
T4CC8 000:125.022   Iterating through AP map to find AHB-AP to use
T4CC8 000:125.501   AP[0]: Core found
T4CC8 000:125.536   AP[0]: AHB-AP ROM base: 0xE00FD000
T4CC8 000:125.817   CPUID register: 0x411FC271. Implementer code: 0x41 (ARM)
T4CC8 000:125.855   Found Cortex-M7 r1p1, Little endian.
T4CC8 000:227.540    -- Max. mem block: 0x00004540
T4CC8 000:228.090   CPU_ReadMem(4 bytes @ 0xE000EDF0)
T4CC8 000:228.497   CPU_ReadMem(4 bytes @ 0xE0002000)
T4CC8 000:228.930   FPUnit: 8 code (BP) slots and 0 literal slots
T4CC8 000:228.976   CPU_ReadMem(4 bytes @ 0xE000EDFC)
T4CC8 000:229.333   CPU_WriteMem(4 bytes @ 0xE000EDFC)
T4CC8 000:229.711   CPU_ReadMem(4 bytes @ 0xE0001000)
T4CC8 000:230.073   CPU_WriteMem(4 bytes @ 0xE0001000)
T4CC8 000:230.481   CPU_ReadMem(4 bytes @ 0xE000ED88)
T4CC8 000:230.816   CPU_WriteMem(4 bytes @ 0xE000ED88)
T4CC8 000:231.145   CPU_ReadMem(4 bytes @ 0xE000ED88)
T4CC8 000:231.415   CPU_WriteMem(4 bytes @ 0xE000ED88)
T4CC8 000:231.727   CoreSight components:
T4CC8 000:231.795   ROMTbl[0] @ E00FD000
T4CC8 000:232.189   CPU_ReadMem(64 bytes @ 0xE00FD000)
T4CC8 000:232.653   CPU_ReadMem(32 bytes @ 0xE00FEFE0)
T4CC8 000:233.066   ROMTbl[0][0]: E00FE000, CID: B105100D, PID: 000BB4C8 ROM Table
T4CC8 000:233.102   ROMTbl[1] @ E00FE000
T4CC8 000:233.126   CPU_ReadMem(64 bytes @ 0xE00FE000)
T4CC8 000:233.599   CPU_ReadMem(32 bytes @ 0xE00FFFE0)
T4CC8 000:234.041   ROMTbl[1][0]: E00FF000, CID: B105100D, PID: 000BB4C7 ROM Table
T4CC8 000:234.078   ROMTbl[2] @ E00FF000
T4CC8 000:234.106   CPU_ReadMem(64 bytes @ 0xE00FF000)
T4CC8 000:234.581   CPU_ReadMem(32 bytes @ 0xE000EFE0)
T4CC8 000:234.949   ROMTbl[2][0]: E000E000, CID: B105E00D, PID: 000BB00C SCS-M7
T4CC8 000:234.977   CPU_ReadMem(32 bytes @ 0xE0001FE0)
T4CC8 000:235.373   ROMTbl[2][1]: E0001000, CID: B105E00D, PID: 000BB002 DWT
T4CC8 000:235.402   CPU_ReadMem(32 bytes @ 0xE0002FE0)
T4CC8 000:235.787   ROMTbl[2][2]: E0002000, CID: B105E00D, PID: 000BB00E FPB-M7
T4CC8 000:235.815   CPU_ReadMem(32 bytes @ 0xE0000FE0)
T4CC8 000:236.168   ROMTbl[2][3]: E0000000, CID: B105E00D, PID: 000BB001 ITM
T4CC8 000:236.196   CPU_ReadMem(32 bytes @ 0xE0041FE0)
T4CC8 000:236.581   ROMTbl[1][1]: E0041000, CID: B105900D, PID: 001BB975 ETM-M7
T4CC8 000:236.611   CPU_ReadMem(32 bytes @ 0xE0042FE0)
T4CC8 000:237.005   ROMTbl[1][2]: E0042000, CID: B105900D, PID: 004BB906 CTI
T4CC8 000:237.039   CPU_ReadMem(32 bytes @ 0xE0040FE0)
T4CC8 000:237.482   ROMTbl[0][1]: E0040000, CID: B105900D, PID: 000BB9A9 TPIU-M7
T4CC8 000:237.514   CPU_ReadMem(32 bytes @ 0xE0043FE0)
T4CC8 000:237.905   ROMTbl[0][2]: E0043000, CID: B105F00D, PID: 001BB101 TSG
T4CC8 000:237.937   CPU_ReadMem(4 bytes @ 0xE000ED78)
T4CC8 000:238.248   Cache: Separate I- and D-cache.
T4CC8 000:238.286   CPU_WriteMem(4 bytes @ 0xE000ED84)
T4CC8 000:238.528   CPU_ReadMem(4 bytes @ 0xE000ED80)
T4CC8 000:238.783   I-Cache L1: 32 KB, 512 Sets, 32 Bytes/Line, 2-Way
T4CC8 000:238.845   CPU_WriteMem(4 bytes @ 0xE000ED84)
T4CC8 000:239.092   CPU_ReadMem(4 bytes @ 0xE000ED80)
T4CC8 000:239.346   D-Cache L1: 32 KB, 256 Sets, 32 Bytes/Line, 4-Way
T4CC8 000:239.601 - 120.098ms   returns 0x0BD11477
T4CC8 000:239.635 JLINK_GetDLLVersion()  returns 67005
T4CC8 000:239.692 JLINK_CORE_GetFound()
T4CC8 000:239.707 - 0.025ms returns 0xE0100FF
T4CC8 000:239.728 JLINK_GetDebugInfo(0x100 = JLINKARM_ROM_TABLE_ADDR_INDEX)
T4CC8 000:239.749   Value=0xE00FD000
T4CC8 000:239.771 - 0.050ms returns 0x00
T4CC8 000:239.800 JLINK_GetDebugInfo(0x100 = JLINKARM_ROM_TABLE_ADDR_INDEX)
T4CC8 000:239.817   Value=0xE00FD000
T4CC8 000:239.841 - 0.048ms returns 0x00
T4CC8 000:239.860 JLINK_GetDebugInfo(0x101 = JLINKARM_DEBUG_INFO_ETM_ADDR_INDEX)
T4CC8 000:239.876   Value=0xE0041000
T4CC8 000:239.898 - 0.046ms returns 0x00
T4CC8 000:239.929   JLINK_ReadMemEx(0xE0041FD0, 0x0020 Bytes, ..., Flags = 0x02000004)
T4CC8 000:239.977   CPU_ReadMem(32 bytes @ 0xE0041FD0)
T4CC8 000:240.345   Data:  04 00 00 00 00 00 00 00 00 00 00 00 00 00 00 00 ...
T4CC8 000:240.373 - 0.457ms returns 0x20
T4CC8 000:240.394 JLINK_GetDebugInfo(0x102 = JLINKARM_DEBUG_INFO_MTB_ADDR_INDEX)
T4CC8 000:240.410   Value=0x00000000
T4CC8 000:240.432 - 0.045ms returns 0x00
T4CC8 000:240.486 JLINK_GetDebugInfo(0x103 = JLINKARM_DEBUG_INFO_TPIU_ADDR_INDEX)
T4CC8 000:240.501   Value=0xE0040000
T4CC8 000:240.524 - 0.045ms returns 0x00
T4CC8 000:240.562 JLINK_GetDebugInfo(0x104 = JLINKARM_DEBUG_INFO_ITM_ADDR_INDEX)
T4CC8 000:240.579   Value=0xE0000000
T4CC8 000:240.602 - 0.047ms returns 0x00
T4CC8 000:240.620 JLINK_GetDebugInfo(0x105 = JLINKARM_DEBUG_INFO_DWT_ADDR_INDEX)
T4CC8 000:240.634   Value=0xE0001000
T4CC8 000:240.657 - 0.044ms returns 0x00
T4CC8 000:240.675 JLINK_GetDebugInfo(0x106 = JLINKARM_DEBUG_INFO_FPB_ADDR_INDEX)
T4CC8 000:240.709   Value=0xE0002000
T4CC8 000:240.732 - 0.064ms returns 0x00
T4CC8 000:240.750 JLINK_GetDebugInfo(0x107 = JLINKARM_DEBUG_INFO_NVIC_ADDR_INDEX)
T4CC8 000:240.766   Value=0xE000E000
T4CC8 000:240.788 - 0.045ms returns 0x00
T4CC8 000:240.806 JLINK_GetDebugInfo(0x10C = JLINKARM_DEBUG_INFO_DBG_ADDR_INDEX)
T4CC8 000:240.823   Value=0xE000EDF0
T4CC8 000:240.851 - 0.052ms returns 0x00
T4CC8 000:240.869 JLINK_GetDebugInfo(0x01 = Unknown)
T4CC8 000:240.890   Value=0x00000001
T4CC8 000:240.912 - 0.050ms returns 0x00
T4CC8 000:240.935 JLINK_ReadMemU32(0xE000ED00, 0x0001 Items, ...)
T4CC8 000:240.955   CPU_ReadMem(4 bytes @ 0xE000ED00)
T4CC8 000:241.182   Data:  71 C2 1F 41
T4CC8 000:241.216    - CPUID
T4CC8 000:241.239 - 0.311ms returns 1
T4CC8 000:241.260 JLINK_GetDebugInfo(0x10F = JLINKARM_DEBUG_INFO_HAS_CORTEX_M_SECURITY_EXT_INDEX)
T4CC8 000:241.276   Value=0x00000000
T4CC8 000:241.299 - 0.046ms returns 0x00
T4CC8 000:241.321 JLINK_SetResetType(JLINKARM_CM3_RESET_TYPE_CORE)
T4CC8 000:241.336 - 0.023ms returns JLINKARM_CM3_RESET_TYPE_NORMAL
T4CC8 000:241.354 JLINK_Reset()
T4CC8 000:241.392   CPU is running
T4CC8 000:241.417   CPU_WriteMem(4 bytes @ 0xE000EDF0)
T4CC8 000:241.656   CPU is running
T4CC8 000:241.684   CPU_WriteMem(4 bytes @ 0xE000EDFC)
T4CC8 000:241.957   Reset: Halt core after reset via DEMCR.VC_CORERESET.
T4CC8 000:242.175   Reset: Reset device via AIRCR.VECTRESET.
T4CC8 000:242.205   CPU is running
T4CC8 000:242.228   CPU_WriteMem(4 bytes @ 0xE000ED0C)
T4CC8 000:242.454   CPU_ReadMem(4 bytes @ 0xE000EDF0)
T4CC8 000:242.680   CPU_ReadMem(4 bytes @ 0xE000EDF0)
T4CC8 000:242.963   CPU is running
T4CC8 000:242.995   CPU_WriteMem(4 bytes @ 0xE000EDF0)
T4CC8 000:243.290   CPU is running
T4CC8 000:243.322   CPU_WriteMem(4 bytes @ 0xE000EDFC)
T4CC8 000:248.793   CPU_ReadMem(4 bytes @ 0xE000EDF0)
T4CC8 000:251.135   CPU_WriteMem(4 bytes @ 0xE0002000)
T4CC8 000:251.466   CPU_ReadMem(4 bytes @ 0xE000EDFC)
T4CC8 000:251.824   CPU_ReadMem(4 bytes @ 0xE0001000)
T4CC8 000:252.191 - 10.850ms
T4CC8 000:252.236 JLINK_ReadReg(R15 (PC))
T4CC8 000:252.256 - 0.030ms returns 0x00202090
T4CC8 000:252.277 JLINK_ReadReg(XPSR)
T4CC8 000:252.292 - 0.022ms returns 0x01000000
T4CC8 000:252.310 JLINK_Halt()
T4CC8 000:252.324 - 0.021ms returns 0x00
T4CC8 000:252.342 JLINK_ReadMemU32(0xE000EDF0, 0x0001 Items, ...)
T4CC8 000:252.361   CPU_ReadMem(4 bytes @ 0xE000EDF0)
T4CC8 000:252.691   Data:  03 00 03 00
T4CC8 000:252.781    - DHCSR
T4CC8 000:252.820 - 0.499ms returns 1
T4CC8 000:252.854 JLINK_WriteU32(0xE000EDF0, 0xA05F0003)
T4CC8 000:252.870    - DHCSR
T4CC8 000:252.910   CPU_WriteMem(4 bytes @ 0xE000EDF0)
T4CC8 000:253.243 - 0.404ms returns 0
T4CC8 000:253.274 JLINK_WriteU32(0xE000EDFC, 0x01000000)
T4CC8 000:253.291    - DEMCR
T4CC8 000:253.317   CPU_WriteMem(4 bytes @ 0xE000EDFC)
T4CC8 000:253.641 - 0.382ms returns 0
T4CC8 000:253.736 JLINK_GetHWStatus(...)
T4CC8 000:253.963 - 0.269ms returns 0x00
T4CC8 000:254.075 JLINK_GetNumBPUnits(Type = 0xFFFFFF00)
T4CC8 000:254.092 - 0.039ms returns 0x08
T4CC8 000:254.125 JLINK_GetNumBPUnits(Type = 0xF0)
T4CC8 000:254.141 - 0.023ms returns 0x2000
T4CC8 000:254.159 JLINK_GetNumWPUnits()
T4CC8 000:254.189 - 0.037ms returns 0x04
T4CC8 000:254.222 JLINK_GetSpeed()
T4CC8 000:254.238 - 0.025ms returns 0x1388
T4CC8 000:254.268 JLINK_ReadMemU32(0xE000E004, 0x0001 Items, ...)
T4CC8 000:254.289   CPU_ReadMem(4 bytes @ 0xE000E004)
T4CC8 000:254.512   Data:  04 00 00 00
T4CC8 000:254.547 - 0.289ms returns 1
T4CC8 000:254.576 JLINK_ReadMemU32(0xE000E004, 0x0001 Items, ...)
T4CC8 000:254.604   CPU_ReadMem(4 bytes @ 0xE000E004)
T4CC8 000:254.862   Data:  04 00 00 00
T4CC8 000:254.894 - 0.326ms returns 1
T4CC8 000:254.920 JLINK_WriteMemEx(0xE0001000, 0x001C Bytes, ..., Flags = 0x02000004)
T4CC8 000:254.937   Data:  01 00 00 00 00 00 00 00 00 00 00 00 00 00 00 00 ...
T4CC8 000:255.657   CPU_WriteMem(28 bytes @ 0xE0001000)
T4CC8 000:256.098 - 1.192ms returns 0x1C
T4CC8 000:256.142 JLINK_ReadReg(R15 (PC))
T4CC8 000:256.160 - 0.026ms returns 0x00202090
T4CC8 000:256.178 JLINK_ReadReg(XPSR)
T4CC8 000:256.193 - 0.023ms returns 0x01000000
T4CC8 000:260.279   JLINK_ReadMemEx(0xE0001004, 0x0004 Bytes, ..., Flags = 0x02000000)
T4CC8 000:260.321   Data:  00 00 00 00
T4CC8 000:260.344    - DWT_CYCCNT
T4CC8 000:260.365 - 0.095ms returns 0x04
T4CC8 002:422.904   JLINK_ReadMemEx(0x00000000, 0x003C Bytes, ..., Flags = 0x02000000)
T4CC8 002:422.971   CPU_ReadMem(60 bytes @ 0x00000000)
T4CC8 002:423.481   Data:  B6 55 A4 4A 8F 53 A0 E0 EC DB 96 5E 53 1B 47 44 ...
T4CC8 002:423.510 - 0.614ms returns 0x3C
T4CC8 002:423.533   JLINK_ReadMemEx(0x00000000, 0x0002 Bytes, ..., Flags = 0x02000000)
T4CC8 002:423.560   CPU_ReadMem(2 bytes @ 0x00000000)
T4CC8 002:423.826   Data:  B6 55
T4CC8 002:423.867 - 0.342ms returns 0x02
T4CC8 002:423.889   JLINK_ReadMemEx(0x00000002, 0x0002 Bytes, ..., Flags = 0x02000000)
T4CC8 002:423.914   CPU_ReadMem(2 bytes @ 0x00000002)
T4CC8 002:424.191   Data:  A4 4A
T4CC8 002:424.232 - 0.351ms returns 0x02
T4CC8 002:424.260   JLINK_ReadMemEx(0x00000002, 0x0002 Bytes, ..., Flags = 0x02000000)
T4CC8 002:424.286   CPU_ReadMem(2 bytes @ 0x00000002)
T4CC8 002:424.568   Data:  A4 4A
T4CC8 002:424.608 - 0.356ms returns 0x02
T4CC8 002:424.629   JLINK_ReadMemEx(0x00000004, 0x003C Bytes, ..., Flags = 0x02000000)
T4CC8 002:424.654   CPU_ReadMem(60 bytes @ 0x00000004)
T4CC8 002:425.133   Data:  8F 53 A0 E0 EC DB 96 5E 53 1B 47 44 11 0D 68 4F ...
T4CC8 002:425.173 - 0.551ms returns 0x3C
T4CC8 002:425.194   JLINK_ReadMemEx(0x00000004, 0x0002 Bytes, ..., Flags = 0x02000000)
T4CC8 002:425.219   CPU_ReadMem(2 bytes @ 0x00000004)
T4CC8 002:425.487   Data:  8F 53
T4CC8 002:425.528 - 0.342ms returns 0x02
T4CC8 002:425.554   JLINK_ReadMemEx(0x00000004, 0x003C Bytes, ..., Flags = 0x02000000)
T4CC8 002:425.579   CPU_ReadMem(60 bytes @ 0x00000004)
T4CC8 002:426.053   Data:  8F 53 A0 E0 EC DB 96 5E 53 1B 47 44 11 0D 68 4F ...
T4CC8 002:426.093 - 0.547ms returns 0x3C
T4CC8 002:426.113   JLINK_ReadMemEx(0x00000004, 0x0002 Bytes, ..., Flags = 0x02000000)
T4CC8 002:426.140   CPU_ReadMem(2 bytes @ 0x00000004)
T4CC8 002:426.375   Data:  8F 53
T4CC8 002:426.403 - 0.297ms returns 0x02
T4CC8 002:426.424   JLINK_ReadMemEx(0x00000006, 0x0002 Bytes, ..., Flags = 0x02000000)
T4CC8 002:426.450   CPU_ReadMem(2 bytes @ 0x00000006)
T4CC8 002:426.673   Data:  A0 E0
T4CC8 002:426.703 - 0.286ms returns 0x02
T4CC8 002:426.744   JLINK_ReadMemEx(0x00000006, 0x0002 Bytes, ..., Flags = 0x02000000)
T4CC8 002:426.770   CPU_ReadMem(2 bytes @ 0x00000006)
T4CC8 002:427.013   Data:  A0 E0
T4CC8 002:427.039 - 0.303ms returns 0x02
T4CC8 002:427.060   JLINK_ReadMemEx(0x00000008, 0x003C Bytes, ..., Flags = 0x02000000)
T4CC8 002:427.085   CPU_ReadMem(60 bytes @ 0x00000008)
T4CC8 002:427.544   Data:  EC DB 96 5E 53 1B 47 44 11 0D 68 4F 1A CD A1 B1 ...
T4CC8 002:427.570 - 0.518ms returns 0x3C
T4CC8 002:427.591   JLINK_ReadMemEx(0x00000008, 0x0002 Bytes, ..., Flags = 0x02000000)
T4CC8 002:427.616   CPU_ReadMem(2 bytes @ 0x00000008)
T4CC8 002:427.835   Data:  EC DB
T4CC8 002:427.861 - 0.278ms returns 0x02
T4CC8 002:427.887   JLINK_ReadMemEx(0x00000008, 0x003C Bytes, ..., Flags = 0x02000000)
T4CC8 002:427.912   CPU_ReadMem(60 bytes @ 0x00000008)
T4CC8 002:428.306   Data:  EC DB 96 5E 53 1B 47 44 11 0D 68 4F 1A CD A1 B1 ...
T4CC8 002:428.333 - 0.453ms returns 0x3C
T4CC8 002:428.353   JLINK_ReadMemEx(0x00000008, 0x0002 Bytes, ..., Flags = 0x02000000)
T4CC8 002:428.378   CPU_ReadMem(2 bytes @ 0x00000008)
T4CC8 002:428.605   Data:  EC DB
T4CC8 002:428.632 - 0.286ms returns 0x02
T4CC8 002:428.652   JLINK_ReadMemEx(0x0000000A, 0x0002 Bytes, ..., Flags = 0x02000000)
T4CC8 002:428.680   CPU_ReadMem(2 bytes @ 0x0000000A)
T4CC8 002:428.980   Data:  96 5E
T4CC8 002:429.007 - 0.362ms returns 0x02
T4CC8 002:429.032   JLINK_ReadMemEx(0x0000000A, 0x0002 Bytes, ..., Flags = 0x02000000)
T4CC8 002:429.057   CPU_ReadMem(2 bytes @ 0x0000000A)
T4CC8 002:429.352   Data:  96 5E
T4CC8 002:429.381 - 0.357ms returns 0x02
T4CC8 002:429.402   JLINK_ReadMemEx(0x0000000C, 0x003C Bytes, ..., Flags = 0x02000000)
T4CC8 002:429.427   CPU_ReadMem(60 bytes @ 0x0000000C)
T4CC8 002:429.927   Data:  53 1B 47 44 11 0D 68 4F 1A CD A1 B1 5C D4 99 38 ...
T4CC8 002:429.993 - 0.599ms returns 0x3C
T4CC8 002:430.014   JLINK_ReadMemEx(0x0000000C, 0x0002 Bytes, ..., Flags = 0x02000000)
T4CC8 002:430.039   CPU_ReadMem(2 bytes @ 0x0000000C)
T4CC8 002:430.333   Data:  53 1B
T4CC8 002:430.359 - 0.353ms returns 0x02
T4CC8 002:430.384   JLINK_ReadMemEx(0x0000000C, 0x003C Bytes, ..., Flags = 0x02000000)
T4CC8 002:430.409   CPU_ReadMem(60 bytes @ 0x0000000C)
T4CC8 002:430.871   Data:  53 1B 47 44 11 0D 68 4F 1A CD A1 B1 5C D4 99 38 ...
T4CC8 002:430.898 - 0.522ms returns 0x3C
T4CC8 002:430.919   JLINK_ReadMemEx(0x0000000C, 0x0002 Bytes, ..., Flags = 0x02000000)
T4CC8 002:430.944   CPU_ReadMem(2 bytes @ 0x0000000C)
T4CC8 002:431.159   Data:  53 1B
T4CC8 002:431.186 - 0.274ms returns 0x02
T4CC8 002:431.206   JLINK_ReadMemEx(0x0000000E, 0x0002 Bytes, ..., Flags = 0x02000000)
T4CC8 002:431.231   CPU_ReadMem(2 bytes @ 0x0000000E)
T4CC8 002:431.477   Data:  47 44
T4CC8 002:431.503 - 0.305ms returns 0x02
T4CC8 002:431.528   JLINK_ReadMemEx(0x0000000E, 0x0002 Bytes, ..., Flags = 0x02000000)
T4CC8 002:431.556   CPU_ReadMem(2 bytes @ 0x0000000E)
T4CC8 002:431.775   Data:  47 44
T4CC8 002:431.802 - 0.281ms returns 0x02
T4CC8 002:431.823   JLINK_ReadMemEx(0x00000010, 0x003C Bytes, ..., Flags = 0x02000000)
T4CC8 002:431.848   CPU_ReadMem(60 bytes @ 0x00000010)
T4CC8 002:432.306   Data:  11 0D 68 4F 1A CD A1 B1 5C D4 99 38 50 3E 4B 2D ...
T4CC8 002:432.359 - 0.544ms returns 0x3C
T4CC8 002:432.380   JLINK_ReadMemEx(0x00000010, 0x0002 Bytes, ..., Flags = 0x02000000)
T4CC8 002:432.404   CPU_ReadMem(2 bytes @ 0x00000010)
T4CC8 002:432.623   Data:  11 0D
T4CC8 002:432.650 - 0.277ms returns 0x02
T4CC8 002:432.676   JLINK_ReadMemEx(0x00000010, 0x003C Bytes, ..., Flags = 0x02000000)
T4CC8 002:432.701   CPU_ReadMem(60 bytes @ 0x00000010)
T4CC8 002:433.157   Data:  11 0D 68 4F 1A CD A1 B1 5C D4 99 38 50 3E 4B 2D ...
T4CC8 002:433.183 - 0.515ms returns 0x3C
T4CC8 002:433.204   JLINK_ReadMemEx(0x00000010, 0x0002 Bytes, ..., Flags = 0x02000000)
T4CC8 002:433.229   CPU_ReadMem(2 bytes @ 0x00000010)
T4CC8 002:433.478   Data:  11 0D
T4CC8 002:433.504 - 0.308ms returns 0x02
T4CC8 002:433.525   JLINK_ReadMemEx(0x00000012, 0x0002 Bytes, ..., Flags = 0x02000000)
T4CC8 002:433.550   CPU_ReadMem(2 bytes @ 0x00000012)
T4CC8 002:433.775   Data:  68 4F
T4CC8 002:433.802 - 0.284ms returns 0x02
T4CC8 002:890.419 JLINK_ReadReg(R0)
T4CC8 002:890.803 - 0.434ms returns 0x00000000
T4CC8 002:890.867 JLINK_ReadReg(R1)
T4CC8 002:890.917 - 0.073ms returns 0x00000000
T4CC8 002:890.952 JLINK_ReadReg(R2)
T4CC8 002:890.968 - 0.023ms returns 0x00000000
T4CC8 002:890.986 JLINK_ReadReg(R3)
T4CC8 002:891.001 - 0.038ms returns 0x00000000
T4CC8 002:891.054 JLINK_ReadReg(R4)
T4CC8 002:891.086 - 0.058ms returns 0x00000000
T4CC8 002:891.140 JLINK_ReadReg(R5)
T4CC8 002:891.154 - 0.022ms returns 0x00000000
T4CC8 002:891.191 JLINK_ReadReg(R6)
T4CC8 002:891.237 - 0.072ms returns 0x00000000
T4CC8 002:891.291 JLINK_ReadReg(R7)
T4CC8 002:891.305 - 0.021ms returns 0x00000000
T4CC8 002:891.323 JLINK_ReadReg(R8)
T4CC8 002:891.337 - 0.021ms returns 0x00000000
T4CC8 002:891.355 JLINK_ReadReg(R9)
T4CC8 002:891.369 - 0.021ms returns 0x00000000
T4CC8 002:891.386 JLINK_ReadReg(R10)
T4CC8 002:891.401 - 0.021ms returns 0x00000000
T4CC8 002:891.418 JLINK_ReadReg(R11)
T4CC8 002:891.432 - 0.041ms returns 0x00000000
T4CC8 002:891.469 JLINK_ReadReg(R12)
T4CC8 002:891.501 - 0.038ms returns 0x00000000
T4CC8 002:891.518 JLINK_ReadReg(R13 (SP))
T4CC8 002:891.532 - 0.022ms returns 0x20201000
T4CC8 002:891.550 JLINK_ReadReg(R14)
T4CC8 002:891.566 - 0.023ms returns 0xFFFFFFFF
T4CC8 002:891.583 JLINK_ReadReg(R15 (PC))
T4CC8 002:891.597 - 0.021ms returns 0x00202090
T4CC8 002:891.615 JLINK_ReadReg(XPSR)
T4CC8 002:891.629 - 0.021ms returns 0x01000000
T4CC8 002:891.666 JLINK_ReadReg(MSP)
T4CC8 002:891.700 - 0.040ms returns 0x20201000
T4CC8 002:891.717 JLINK_ReadReg(PSP)
T4CC8 002:891.731 - 0.021ms returns 0x00000000
T4CC8 002:891.748 JLINK_ReadReg(CFBP)
T4CC8 002:891.763 - 0.021ms returns 0x00000000
T4CC8 002:891.780 JLINK_ReadReg(FPSCR)
T4CC8 002:894.370 - 2.602ms returns 0x00000000
T4CC8 002:894.396 JLINK_ReadReg(FPS0)
T4CC8 002:894.413 - 0.026ms returns 0x00000000
T4CC8 002:894.435 JLINK_ReadReg(FPS1)
T4CC8 002:894.450 - 0.022ms returns 0x00000000
T4CC8 002:894.468 JLINK_ReadReg(FPS2)
T4CC8 002:894.482 - 0.021ms returns 0x00000000
T4CC8 002:894.500 JLINK_ReadReg(FPS3)
T4CC8 002:894.515 - 0.021ms returns 0x00000000
T4CC8 002:894.532 JLINK_ReadReg(FPS4)
T4CC8 002:894.546 - 0.021ms returns 0x00000000
T4CC8 002:894.564 JLINK_ReadReg(FPS5)
T4CC8 002:894.579 - 0.023ms returns 0x00000000
T4CC8 002:894.596 JLINK_ReadReg(FPS6)
T4CC8 002:894.611 - 0.021ms returns 0x00000000
T4CC8 002:894.628 JLINK_ReadReg(FPS7)
T4CC8 002:894.643 - 0.022ms returns 0x00000000
T4CC8 002:894.661 JLINK_ReadReg(FPS8)
T4CC8 002:894.697 - 0.058ms returns 0x00000000
T4CC8 002:894.729 JLINK_ReadReg(FPS9)
T4CC8 002:894.745 - 0.023ms returns 0x00000000
T4CC8 002:894.763 JLINK_ReadReg(FPS10)
T4CC8 002:894.778 - 0.023ms returns 0x00000000
T4CC8 002:894.809 JLINK_ReadReg(FPS11)
T4CC8 002:894.824 - 0.022ms returns 0x00000000
T4CC8 002:894.841 JLINK_ReadReg(FPS12)
T4CC8 002:894.856 - 0.022ms returns 0x00000000
T4CC8 002:894.873 JLINK_ReadReg(FPS13)
T4CC8 002:894.889 - 0.022ms returns 0x00000000
T4CC8 002:894.906 JLINK_ReadReg(FPS14)
T4CC8 002:894.920 - 0.021ms returns 0x00000000
T4CC8 002:894.937 JLINK_ReadReg(FPS15)
T4CC8 002:894.952 - 0.021ms returns 0xFFFFFFFF
T4CC8 002:894.969 JLINK_ReadReg(FPS16)
T4CC8 002:894.983 - 0.021ms returns 0x00000000
T4CC8 002:895.000 JLINK_ReadReg(FPS17)
T4CC8 002:895.015 - 0.021ms returns 0x00000000
T4CC8 002:895.032 JLINK_ReadReg(FPS18)
T4CC8 002:895.047 - 0.021ms returns 0x00000000
T4CC8 002:895.064 JLINK_ReadReg(FPS19)
T4CC8 002:895.079 - 0.023ms returns 0x00000000
T4CC8 002:895.096 JLINK_ReadReg(FPS20)
T4CC8 002:895.110 - 0.021ms returns 0x00000000
T4CC8 002:895.127 JLINK_ReadReg(FPS21)
T4CC8 002:895.143 - 0.022ms returns 0x00000000
T4CC8 002:895.160 JLINK_ReadReg(FPS22)
T4CC8 002:895.175 - 0.021ms returns 0x00000000
T4CC8 002:895.191 JLINK_ReadReg(FPS23)
T4CC8 002:895.206 - 0.021ms returns 0x00000000
T4CC8 002:895.223 JLINK_ReadReg(FPS24)
T4CC8 002:895.237 - 0.021ms returns 0x00000000
T4CC8 002:895.254 JLINK_ReadReg(FPS25)
T4CC8 002:895.269 - 0.021ms returns 0x00000000
T4CC8 002:895.286 JLINK_ReadReg(FPS26)
T4CC8 002:895.300 - 0.021ms returns 0x00000000
T4CC8 002:895.317 JLINK_ReadReg(FPS27)
T4CC8 002:895.332 - 0.021ms returns 0x00000000
T4CC8 002:895.349 JLINK_ReadReg(FPS28)
T4CC8 002:895.363 - 0.021ms returns 0x00000000
T4CC8 002:895.380 JLINK_ReadReg(FPS29)
T4CC8 002:895.395 - 0.022ms returns 0x00000000
T4CC8 002:895.412 JLINK_ReadReg(FPS30)
T4CC8 002:895.427 - 0.021ms returns 0x00000000
T4CC8 002:895.444 JLINK_ReadReg(FPS31)
T4CC8 002:895.458 - 0.021ms returns 0xFFFFFFFF
T4CC8 002:917.377 JLINK_WriteMemEx(0x00000000, 0x1000 Bytes, ..., Flags = 0x02000000)
T4CC8 002:917.414   Data:  00 00 02 20 3D 04 00 00 79 04 00 00 7D 04 00 00 ...
T4CC8 002:918.083   CPU_WriteMem(4096 bytes @ 0x00000000)
T4CC8 002:930.202 - 12.894ms returns 0x1000
T4CC8 002:930.882 JLINK_WriteMemEx(0x00001000, 0x1000 Bytes, ..., Flags = 0x02000000)
T4CC8 002:930.904   Data:  01 30 01 90 F5 E7 01 98 00 28 52 D0 FF E7 03 98 ...
T4CC8 002:930.946   CPU_WriteMem(4096 bytes @ 0x00001000)
T4CC8 002:943.012 - 12.178ms returns 0x1000
T4CC8 002:944.020 JLINK_WriteMemEx(0x00002000, 0x1000 Bytes, ..., Flags = 0x02000000)
T4CC8 002:944.062   Data:  04 B0 80 BD 00 00 00 00 80 B5 84 B0 03 90 02 91 ...
T4CC8 002:944.141   CPU_WriteMem(4096 bytes @ 0x00002000)
T4CC8 002:956.129 - 12.124ms returns 0x1000
T4CC8 002:957.073 JLINK_WriteMemEx(0x00003000, 0x1000 Bytes, ..., Flags = 0x02000000)
T4CC8 002:957.097   Data:  F8 50 07 99 08 43 07 90 07 98 41 F6 FF 71 88 43 ...
T4CC8 002:957.133   CPU_WriteMem(4096 bytes @ 0x00003000)
T4CC8 002:969.240 - 12.218ms returns 0x1000
T4CC8 002:969.906 JLINK_WriteMemEx(0x00004000, 0x0C18 Bytes, ..., Flags = 0x02000000)
T4CC8 002:969.926   Data:  06 98 00 28 04 D1 FF E7 01 20 8D F8 1F 00 0B E0 ...
T4CC8 002:969.955   CPU_WriteMem(3096 bytes @ 0x00004000)
T4CC8 002:979.594 - 9.717ms returns 0xC18
T4CC8 003:034.355   JLINK_ReadMemEx(0x401F4490, 0x0004 Bytes, ..., Flags = 0x02000000)
T4CC8 003:034.407   CPU_ReadMem(4 bytes @ 0x401F4490)
T4CC8 003:034.865   Data:  00 94 00 00
T4CC8 003:034.908 - 0.562ms returns 0x04
T4CC8 003:035.055   JLINK_ReadMemEx(0x40080004, 0x0004 Bytes, ..., Flags = 0x02000000)
T4CC8 003:035.082   CPU_ReadMem(4 bytes @ 0x40080004)
T4CC8 003:035.538   Data:  9C A2 1B 12
T4CC8 003:035.582 - 0.535ms returns 0x04
T4CC8 003:035.681 JLINK_WriteMemEx(0x40080004, 0x0004 Bytes, ..., Flags = 0x02000000)
T4CC8 003:035.697   Data:  9C A2 1B 12
T4CC8 003:035.725   CPU_WriteMem(4 bytes @ 0x40080004)
T4CC8 003:036.209 - 0.558ms returns 0x04
T4CC8 003:036.256   JLINK_ReadMemEx(0x401F4480, 0x0004 Bytes, ..., Flags = 0x02000000)
T4CC8 003:036.284   CPU_ReadMem(4 bytes @ 0x401F4480)
T4CC8 003:036.805   Data:  00 00 00 00
T4CC8 003:036.891 - 0.659ms returns 0x04
T4CC8 003:064.472   JLINK_ReadMemEx(0x00000000, 0x0004 Bytes, ..., Flags = 0x02000000)
T4CC8 003:064.526   CPU_ReadMem(4 bytes @ 0x00000000)
T4CC8 003:064.908   Data:  00 00 02 20
T4CC8 003:064.959 - 0.496ms returns 0x04
T4CC8 003:065.005 JLINK_WriteReg(R13 (SP), 0x20020000)
T4CC8 003:065.024 - 0.027ms returns 0x00
T4CC8 003:065.047 JLINK_ReadReg(R0)
T4CC8 003:065.063 - 0.023ms returns 0x00000000
T4CC8 003:065.082 JLINK_ReadReg(R1)
T4CC8 003:065.097 - 0.023ms returns 0x00000000
T4CC8 003:065.115 JLINK_ReadReg(R2)
T4CC8 003:065.130 - 0.023ms returns 0x00000000
T4CC8 003:065.149 JLINK_ReadReg(R3)
T4CC8 003:065.164 - 0.022ms returns 0x00000000
T4CC8 003:065.181 JLINK_ReadReg(R4)
T4CC8 003:065.197 - 0.023ms returns 0x00000000
T4CC8 003:065.215 JLINK_ReadReg(R5)
T4CC8 003:065.232 - 0.024ms returns 0x00000000
T4CC8 003:065.250 JLINK_ReadReg(R6)
T4CC8 003:065.265 - 0.022ms returns 0x00000000
T4CC8 003:065.283 JLINK_ReadReg(R7)
T4CC8 003:065.317 - 0.041ms returns 0x00000000
T4CC8 003:065.335 JLINK_ReadReg(R8)
T4CC8 003:065.367 - 0.039ms returns 0x00000000
T4CC8 003:065.385 JLINK_ReadReg(R9)
T4CC8 003:065.400 - 0.022ms returns 0x00000000
T4CC8 003:065.417 JLINK_ReadReg(R10)
T4CC8 003:065.432 - 0.022ms returns 0x00000000
T4CC8 003:065.449 JLINK_ReadReg(R11)
T4CC8 003:065.465 - 0.022ms returns 0x00000000
T4CC8 003:065.482 JLINK_ReadReg(R12)
T4CC8 003:065.497 - 0.021ms returns 0x00000000
T4CC8 003:065.514 JLINK_ReadReg(R13 (SP))
T4CC8 003:065.530 - 0.023ms returns 0x20020000
T4CC8 003:065.548 JLINK_ReadReg(R14)
T4CC8 003:065.563 - 0.022ms returns 0xFFFFFFFF
T4CC8 003:065.580 JLINK_ReadReg(R15 (PC))
T4CC8 003:065.595 - 0.022ms returns 0x00202090
T4CC8 003:065.613 JLINK_ReadReg(XPSR)
T4CC8 003:065.627 - 0.022ms returns 0x01000000
T4CC8 003:065.645 JLINK_ReadReg(MSP)
T4CC8 003:065.660 - 0.022ms returns 0x20020000
T4CC8 003:065.677 JLINK_ReadReg(PSP)
T4CC8 003:065.692 - 0.022ms returns 0x00000000
T4CC8 003:065.710 JLINK_ReadReg(CFBP)
T4CC8 003:065.724 - 0.022ms returns 0x00000000
T4CC8 003:065.742 JLINK_ReadReg(FPSCR)
T4CC8 003:065.757 - 0.022ms returns 0x00000000
T4CC8 003:065.775 JLINK_ReadReg(FPS0)
T4CC8 003:065.790 - 0.023ms returns 0x00000000
T4CC8 003:065.808 JLINK_ReadReg(FPS1)
T4CC8 003:065.823 - 0.022ms returns 0x00000000
T4CC8 003:065.840 JLINK_ReadReg(FPS2)
T4CC8 003:065.855 - 0.049ms returns 0x00000000
T4CC8 003:065.901 JLINK_ReadReg(FPS3)
T4CC8 003:065.932 - 0.038ms returns 0x00000000
T4CC8 003:065.950 JLINK_ReadReg(FPS4)
T4CC8 003:065.965 - 0.022ms returns 0x00000000
T4CC8 003:065.982 JLINK_ReadReg(FPS5)
T4CC8 003:065.997 - 0.022ms returns 0x00000000
T4CC8 003:066.015 JLINK_ReadReg(FPS6)
T4CC8 003:066.029 - 0.022ms returns 0x00000000
T4CC8 003:066.047 JLINK_ReadReg(FPS7)
T4CC8 003:066.062 - 0.022ms returns 0x00000000
T4CC8 003:066.079 JLINK_ReadReg(FPS8)
T4CC8 003:066.095 - 0.023ms returns 0x00000000
T4CC8 003:066.113 JLINK_ReadReg(FPS9)
T4CC8 003:066.127 - 0.022ms returns 0x00000000
T4CC8 003:066.145 JLINK_ReadReg(FPS10)
T4CC8 003:066.160 - 0.022ms returns 0x00000000
T4CC8 003:066.177 JLINK_ReadReg(FPS11)
T4CC8 003:066.192 - 0.022ms returns 0x00000000
T4CC8 003:066.210 JLINK_ReadReg(FPS12)
T4CC8 003:066.231 - 0.029ms returns 0x00000000
T4CC8 003:066.248 JLINK_ReadReg(FPS13)
T4CC8 003:066.264 - 0.022ms returns 0x00000000
T4CC8 003:066.281 JLINK_ReadReg(FPS14)
T4CC8 003:066.296 - 0.023ms returns 0x00000000
T4CC8 003:066.314 JLINK_ReadReg(FPS15)
T4CC8 003:066.329 - 0.022ms returns 0xFFFFFFFF
T4CC8 003:066.347 JLINK_ReadReg(FPS16)
T4CC8 003:066.362 - 0.023ms returns 0x00000000
T4CC8 003:066.380 JLINK_ReadReg(FPS17)
T4CC8 003:066.395 - 0.021ms returns 0x00000000
T4CC8 003:066.412 JLINK_ReadReg(FPS18)
T4CC8 003:066.427 - 0.022ms returns 0x00000000
T4CC8 003:066.444 JLINK_ReadReg(FPS19)
T4CC8 003:066.459 - 0.022ms returns 0x00000000
T4CC8 003:066.477 JLINK_ReadReg(FPS20)
T4CC8 003:066.492 - 0.022ms returns 0x00000000
T4CC8 003:066.509 JLINK_ReadReg(FPS21)
T4CC8 003:066.524 - 0.022ms returns 0x00000000
T4CC8 003:066.541 JLINK_ReadReg(FPS22)
T4CC8 003:066.557 - 0.022ms returns 0x00000000
T4CC8 003:066.574 JLINK_ReadReg(FPS23)
T4CC8 003:066.589 - 0.021ms returns 0x00000000
T4CC8 003:066.606 JLINK_ReadReg(FPS24)
T4CC8 003:066.622 - 0.023ms returns 0x00000000
T4CC8 003:066.639 JLINK_ReadReg(FPS25)
T4CC8 003:066.654 - 0.022ms returns 0x00000000
T4CC8 003:066.672 JLINK_ReadReg(FPS26)
T4CC8 003:066.686 - 0.022ms returns 0x00000000
T4CC8 003:066.704 JLINK_ReadReg(FPS27)
T4CC8 003:066.719 - 0.021ms returns 0x00000000
T4CC8 003:066.736 JLINK_ReadReg(FPS28)
T4CC8 003:066.751 - 0.022ms returns 0x00000000
T4CC8 003:066.768 JLINK_ReadReg(FPS29)
T4CC8 003:066.783 - 0.022ms returns 0x00000000
T4CC8 003:066.800 JLINK_ReadReg(FPS30)
T4CC8 003:066.815 - 0.022ms returns 0x00000000
T4CC8 003:066.833 JLINK_ReadReg(FPS31)
T4CC8 003:066.848 - 0.023ms returns 0xFFFFFFFF
T4CC8 003:066.869   JLINK_ReadMemEx(0x00000004, 0x0004 Bytes, ..., Flags = 0x02000000)
T4CC8 003:066.895   CPU_ReadMem(4 bytes @ 0x00000004)
T4CC8 003:067.312   Data:  3D 04 00 00
T4CC8 003:067.356 - 0.495ms returns 0x04
T4CC8 003:067.382 JLINK_WriteReg(R15 (PC), 0x0000043C)
T4CC8 003:067.400 - 0.026ms returns 0x00
T4CC8 003:067.422 JLINK_ReadReg(R0)
T4CC8 003:067.438 - 0.023ms returns 0x00000000
T4CC8 003:067.456 JLINK_ReadReg(R1)
T4CC8 003:067.471 - 0.022ms returns 0x00000000
T4CC8 003:067.488 JLINK_ReadReg(R2)
T4CC8 003:067.504 - 0.022ms returns 0x00000000
T4CC8 003:067.521 JLINK_ReadReg(R3)
T4CC8 003:067.538 - 0.023ms returns 0x00000000
T4CC8 003:067.555 JLINK_ReadReg(R4)
T4CC8 003:067.570 - 0.022ms returns 0x00000000
T4CC8 003:067.588 JLINK_ReadReg(R5)
T4CC8 003:067.602 - 0.022ms returns 0x00000000
T4CC8 003:067.620 JLINK_ReadReg(R6)
T4CC8 003:067.635 - 0.021ms returns 0x00000000
T4CC8 003:067.652 JLINK_ReadReg(R7)
T4CC8 003:067.667 - 0.021ms returns 0x00000000
T4CC8 003:067.684 JLINK_ReadReg(R8)
T4CC8 003:067.699 - 0.022ms returns 0x00000000
T4CC8 003:067.716 JLINK_ReadReg(R9)
T4CC8 003:067.731 - 0.022ms returns 0x00000000
T4CC8 003:067.749 JLINK_ReadReg(R10)
T4CC8 003:067.763 - 0.022ms returns 0x00000000
T4CC8 003:067.781 JLINK_ReadReg(R11)
T4CC8 003:067.797 - 0.023ms returns 0x00000000
T4CC8 003:067.814 JLINK_ReadReg(R12)
T4CC8 003:067.829 - 0.022ms returns 0x00000000
T4CC8 003:067.846 JLINK_ReadReg(R13 (SP))
T4CC8 003:067.861 - 0.022ms returns 0x20020000
T4CC8 003:067.879 JLINK_ReadReg(R14)
T4CC8 003:067.895 - 0.023ms returns 0xFFFFFFFF
T4CC8 003:067.912 JLINK_ReadReg(R15 (PC))
T4CC8 003:067.927 - 0.022ms returns 0x0000043C
T4CC8 003:067.945 JLINK_ReadReg(XPSR)
T4CC8 003:067.960 - 0.022ms returns 0x01000000
T4CC8 003:067.977 JLINK_ReadReg(MSP)
T4CC8 003:067.992 - 0.022ms returns 0x20020000
T4CC8 003:068.009 JLINK_ReadReg(PSP)
T4CC8 003:068.024 - 0.022ms returns 0x00000000
T4CC8 003:068.042 JLINK_ReadReg(CFBP)
T4CC8 003:068.057 - 0.023ms returns 0x00000000
T4CC8 003:068.075 JLINK_ReadReg(FPSCR)
T4CC8 003:068.090 - 0.022ms returns 0x00000000
T4CC8 003:068.121 JLINK_ReadReg(FPS0)
T4CC8 003:068.136 - 0.021ms returns 0x00000000
T4CC8 003:068.152 JLINK_ReadReg(FPS1)
T4CC8 003:068.167 - 0.021ms returns 0x00000000
T4CC8 003:068.184 JLINK_ReadReg(FPS2)
T4CC8 003:068.239 - 0.066ms returns 0x00000000
T4CC8 003:068.260 JLINK_ReadReg(FPS3)
T4CC8 003:068.275 - 0.022ms returns 0x00000000
T4CC8 003:068.292 JLINK_ReadReg(FPS4)
T4CC8 003:068.306 - 0.021ms returns 0x00000000
T4CC8 003:068.323 JLINK_ReadReg(FPS5)
T4CC8 003:068.338 - 0.021ms returns 0x00000000
T4CC8 003:068.355 JLINK_ReadReg(FPS6)
T4CC8 003:068.370 - 0.022ms returns 0x00000000
T4CC8 003:068.387 JLINK_ReadReg(FPS7)
T4CC8 003:068.401 - 0.021ms returns 0x00000000
T4CC8 003:068.418 JLINK_ReadReg(FPS8)
T4CC8 003:068.433 - 0.021ms returns 0x00000000
T4CC8 003:068.450 JLINK_ReadReg(FPS9)
T4CC8 003:068.464 - 0.021ms returns 0x00000000
T4CC8 003:068.481 JLINK_ReadReg(FPS10)
T4CC8 003:068.495 - 0.021ms returns 0x00000000
T4CC8 003:068.512 JLINK_ReadReg(FPS11)
T4CC8 003:068.527 - 0.021ms returns 0x00000000
T4CC8 003:068.544 JLINK_ReadReg(FPS12)
T4CC8 003:068.558 - 0.021ms returns 0x00000000
T4CC8 003:068.575 JLINK_ReadReg(FPS13)
T4CC8 003:068.589 - 0.021ms returns 0x00000000
T4CC8 003:068.606 JLINK_ReadReg(FPS14)
T4CC8 003:068.622 - 0.022ms returns 0x00000000
T4CC8 003:068.639 JLINK_ReadReg(FPS15)
T4CC8 003:068.653 - 0.021ms returns 0xFFFFFFFF
T4CC8 003:068.670 JLINK_ReadReg(FPS16)
T4CC8 003:068.684 - 0.021ms returns 0x00000000
T4CC8 003:068.701 JLINK_ReadReg(FPS17)
T4CC8 003:068.716 - 0.021ms returns 0x00000000
T4CC8 003:068.733 JLINK_ReadReg(FPS18)
T4CC8 003:068.747 - 0.021ms returns 0x00000000
T4CC8 003:068.764 JLINK_ReadReg(FPS19)
T4CC8 003:068.778 - 0.021ms returns 0x00000000
T4CC8 003:068.795 JLINK_ReadReg(FPS20)
T4CC8 003:068.810 - 0.021ms returns 0x00000000
T4CC8 003:068.827 JLINK_ReadReg(FPS21)
T4CC8 003:068.841 - 0.021ms returns 0x00000000
T4CC8 003:068.858 JLINK_ReadReg(FPS22)
T4CC8 003:068.873 - 0.022ms returns 0x00000000
T4CC8 003:068.891 JLINK_ReadReg(FPS23)
T4CC8 003:068.925 - 0.057ms returns 0x00000000
T4CC8 003:068.959 JLINK_ReadReg(FPS24)
T4CC8 003:068.993 - 0.057ms returns 0x00000000
T4CC8 003:069.026 JLINK_ReadReg(FPS25)
T4CC8 003:069.041 - 0.040ms returns 0x00000000
T4CC8 003:069.096 JLINK_ReadReg(FPS26)
T4CC8 003:069.112 - 0.023ms returns 0x00000000
T4CC8 003:069.144 JLINK_ReadReg(FPS27)
T4CC8 003:069.160 - 0.023ms returns 0x00000000
T4CC8 003:069.177 JLINK_ReadReg(FPS28)
T4CC8 003:069.193 - 0.023ms returns 0x00000000
T4CC8 003:069.211 JLINK_ReadReg(FPS29)
T4CC8 003:069.226 - 0.023ms returns 0x00000000
T4CC8 003:069.245 JLINK_ReadReg(FPS30)
T4CC8 003:069.260 - 0.023ms returns 0x00000000
T4CC8 003:069.292 JLINK_ReadReg(FPS31)
T4CC8 003:069.306 - 0.021ms returns 0xFFFFFFFF
T4CC8 003:069.325 JLINK_WriteMemEx(0xE000ED08, 0x0004 Bytes, ..., Flags = 0x02000000)
T4CC8 003:069.339   Data:  00 00 00 00
T4CC8 003:069.366   CPU_WriteMem(4 bytes @ 0xE000ED08)
T4CC8 003:069.885 - 0.636ms returns 0x04
T1C28 003:073.792   JLINK_ReadMemEx(0x0000043C, 0x0002 Bytes, ..., Flags = 0x02000000)
T1C28 003:073.946   CPU_ReadMem(2 bytes @ 0x0000043C)
T1C28 003:074.366   Data:  72 B6
T1C28 003:074.396 - 0.612ms returns 0x02
T1C28 003:074.424   JLINK_SetBPEx(Addr = 0x000044E8, Type = 0xFFFFFFF2)
T1C28 003:074.449 - 0.033ms returns 0x00000001
T1C28 003:074.473 JLINK_Go()
T1C28 003:074.509   CPU_WriteMem(4 bytes @ 0xE0002000)
T1C28 003:074.950   CPU_ReadMem(4 bytes @ 0xE0001000)
T1C28 003:075.319   CPU_WriteMem(4 bytes @ 0xE0002008)
T1C28 003:075.349   CPU_WriteMem(4 bytes @ 0xE000200C)
T1C28 003:075.371   CPU_WriteMem(4 bytes @ 0xE0002010)
T1C28 003:075.393   CPU_WriteMem(4 bytes @ 0xE0002014)
T1C28 003:075.414   CPU_WriteMem(4 bytes @ 0xE0002018)
T1C28 003:075.436   CPU_WriteMem(4 bytes @ 0xE000201C)
T1C28 003:075.457   CPU_WriteMem(4 bytes @ 0xE0002020)
T1C28 003:075.479   CPU_WriteMem(4 bytes @ 0xE0002024)
T1C28 003:076.542   CPU_WriteMem(4 bytes @ 0xE0001004)
T1C28 003:077.842 - 3.383ms
T1C28 003:178.698 JLINK_IsHalted()
T1C28 003:180.586 - 1.907ms returns TRUE
T1C28 003:180.678 JLINK_Halt()
T1C28 003:180.695 - 0.025ms returns 0x00
T1C28 003:180.716 JLINK_IsHalted()
T1C28 003:180.731 - 0.022ms returns TRUE
T1C28 003:180.749 JLINK_IsHalted()
T1C28 003:180.823 - 0.084ms returns TRUE
T1C28 003:180.845 JLINK_IsHalted()
T1C28 003:180.859 - 0.021ms returns TRUE
T1C28 003:180.880 JLINK_ReadReg(R15 (PC))
T1C28 003:180.897 - 0.024ms returns 0x000044E8
T1C28 003:180.915 JLINK_ReadReg(XPSR)
T1C28 003:180.930 - 0.022ms returns 0x61000000
T1C28 003:180.953 JLINK_ClrBPEx(BPHandle = 0x00000001)
T1C28 003:180.968 - 0.022ms returns 0x00
T1C28 003:180.991 JLINK_ReadMemU32(0xE000ED30, 0x0001 Items, ...)
T1C28 003:181.011   CPU_ReadMem(4 bytes @ 0xE000ED30)
T1C28 003:181.375   Data:  02 00 00 00
T1C28 003:181.406 - 0.422ms returns 1
T1C28 003:181.426 JLINK_ReadMemU32(0xE0001028, 0x0001 Items, ...)
T1C28 003:181.446   CPU_ReadMem(4 bytes @ 0xE0001028)
T1C28 003:181.807   Data:  00 00 00 00
T1C28 003:181.848    - DWT_FUNC[0]
T1C28 003:181.870 - 0.450ms returns 1
T1C28 003:181.890 JLINK_ReadMemU32(0xE0001038, 0x0001 Items, ...)
T1C28 003:181.909   CPU_ReadMem(4 bytes @ 0xE0001038)
T1C28 003:182.274   Data:  00 02 00 00
T1C28 003:182.304    - DWT_FUNC[1]
T1C28 003:182.325 - 0.442ms returns 1
T1C28 003:182.345 JLINK_ReadMemU32(0xE0001048, 0x0001 Items, ...)
T1C28 003:182.364   CPU_ReadMem(4 bytes @ 0xE0001048)
T1C28 003:182.774   Data:  00 00 00 00
T1C28 003:182.804    - DWT_FUNC[2]
T1C28 003:182.825 - 0.487ms returns 1
T1C28 003:182.847 JLINK_ReadMemU32(0xE0001058, 0x0001 Items, ...)
T1C28 003:182.866   CPU_ReadMem(4 bytes @ 0xE0001058)
T1C28 003:183.243   Data:  00 00 00 00
T1C28 003:183.272    - DWT_FUNC[3]
T1C28 003:183.293 - 0.454ms returns 1
T1C28 003:183.668 JLINK_ReadReg(R0)
T1C28 003:183.687 - 0.027ms returns 0x000044E9
T1C28 003:183.706 JLINK_ReadReg(R1)
T1C28 003:183.721 - 0.035ms returns 0x20000054
T1C28 003:183.752 JLINK_ReadReg(R2)
T1C28 003:183.766 - 0.021ms returns 0x00000000
T1C28 003:183.785 JLINK_ReadReg(R3)
T1C28 003:183.799 - 0.021ms returns 0x00004643
T1C28 003:183.817 JLINK_ReadReg(R4)
T1C28 003:183.831 - 0.021ms returns 0x00004C10
T1C28 003:183.848 JLINK_ReadReg(R5)
T1C28 003:183.863 - 0.022ms returns 0x00004C10
T1C28 003:183.880 JLINK_ReadReg(R6)
T1C28 003:183.894 - 0.021ms returns 0x00000000
T1C28 003:183.912 JLINK_ReadReg(R7)
T1C28 003:183.926 - 0.021ms returns 0x00000000
T1C28 003:183.943 JLINK_ReadReg(R8)
T1C28 003:183.957 - 0.021ms returns 0x00000000
T1C28 003:183.974 JLINK_ReadReg(R9)
T1C28 003:183.989 - 0.021ms returns 0x00000000
T1C28 003:184.006 JLINK_ReadReg(R10)
T1C28 003:184.021 - 0.021ms returns 0x00000000
T1C28 003:184.039 JLINK_ReadReg(R11)
T1C28 003:184.053 - 0.021ms returns 0x00000000
T1C28 003:184.070 JLINK_ReadReg(R12)
T1C28 003:184.085 - 0.021ms returns 0x00000000
T1C28 003:184.102 JLINK_ReadReg(R13 (SP))
T1C28 003:184.117 - 0.022ms returns 0x20020000
T1C28 003:184.134 JLINK_ReadReg(R14)
T1C28 003:184.148 - 0.021ms returns 0x00000691
T1C28 003:184.166 JLINK_ReadReg(R15 (PC))
T1C28 003:184.180 - 0.021ms returns 0x000044E8
T1C28 003:184.197 JLINK_ReadReg(XPSR)
T1C28 003:184.211 - 0.021ms returns 0x61000000
T1C28 003:184.228 JLINK_ReadReg(MSP)
T1C28 003:184.243 - 0.021ms returns 0x20020000
T1C28 003:184.260 JLINK_ReadReg(PSP)
T1C28 003:184.275 - 0.021ms returns 0x00000000
T1C28 003:184.292 JLINK_ReadReg(CFBP)
T1C28 003:184.307 - 0.021ms returns 0x00000000
T1C28 003:184.324 JLINK_ReadReg(FPSCR)
T1C28 003:186.952 - 2.641ms returns 0x00000000
T1C28 003:186.979 JLINK_ReadReg(FPS0)
T1C28 003:186.996 - 0.024ms returns 0x00000000
T1C28 003:187.014 JLINK_ReadReg(FPS1)
T1C28 003:187.029 - 0.022ms returns 0x00000000
T1C28 003:187.046 JLINK_ReadReg(FPS2)
T1C28 003:187.062 - 0.023ms returns 0x00000000
T1C28 003:187.079 JLINK_ReadReg(FPS3)
T1C28 003:187.094 - 0.021ms returns 0x00000000
T1C28 003:187.111 JLINK_ReadReg(FPS4)
T1C28 003:187.126 - 0.021ms returns 0x00000000
T1C28 003:187.143 JLINK_ReadReg(FPS5)
T1C28 003:187.157 - 0.021ms returns 0x00000000
T1C28 003:187.174 JLINK_ReadReg(FPS6)
T1C28 003:187.189 - 0.021ms returns 0x00000000
T1C28 003:187.206 JLINK_ReadReg(FPS7)
T1C28 003:187.220 - 0.021ms returns 0x00000000
T1C28 003:187.238 JLINK_ReadReg(FPS8)
T1C28 003:187.254 - 0.026ms returns 0x00000000
T1C28 003:187.274 JLINK_ReadReg(FPS9)
T1C28 003:187.288 - 0.022ms returns 0x00000000
T1C28 003:187.306 JLINK_ReadReg(FPS10)
T1C28 003:187.321 - 0.022ms returns 0x00000000
T1C28 003:187.338 JLINK_ReadReg(FPS11)
T1C28 003:187.353 - 0.021ms returns 0x00000000
T1C28 003:187.370 JLINK_ReadReg(FPS12)
T1C28 003:187.384 - 0.021ms returns 0x00000000
T1C28 003:187.401 JLINK_ReadReg(FPS13)
T1C28 003:187.416 - 0.021ms returns 0x00000000
T1C28 003:187.433 JLINK_ReadReg(FPS14)
T1C28 003:187.447 - 0.021ms returns 0x00000000
T1C28 003:187.464 JLINK_ReadReg(FPS15)
T1C28 003:187.479 - 0.021ms returns 0xFFFFFFFF
T1C28 003:187.496 JLINK_ReadReg(FPS16)
T1C28 003:187.510 - 0.021ms returns 0x00000000
T1C28 003:187.527 JLINK_ReadReg(FPS17)
T1C28 003:187.541 - 0.040ms returns 0x00000000
T1C28 003:187.595 JLINK_ReadReg(FPS18)
T1C28 003:187.630 - 0.042ms returns 0x00000000
T1C28 003:187.648 JLINK_ReadReg(FPS19)
T1C28 003:187.677 - 0.036ms returns 0x00000000
T1C28 003:187.695 JLINK_ReadReg(FPS20)
T1C28 003:187.709 - 0.022ms returns 0x00000000
T1C28 003:187.727 JLINK_ReadReg(FPS21)
T1C28 003:187.742 - 0.022ms returns 0x00000000
T1C28 003:187.763 JLINK_ReadReg(FPS22)
T1C28 003:187.778 - 0.022ms returns 0x00000000
T1C28 003:187.795 JLINK_ReadReg(FPS23)
T1C28 003:187.825 - 0.036ms returns 0x00000000
T1C28 003:187.842 JLINK_ReadReg(FPS24)
T1C28 003:187.871 - 0.036ms returns 0x00000000
T1C28 003:187.889 JLINK_ReadReg(FPS25)
T1C28 003:187.904 - 0.022ms returns 0x00000000
T1C28 003:187.923 JLINK_ReadReg(FPS26)
T1C28 003:187.939 - 0.023ms returns 0x00000000
T1C28 003:187.957 JLINK_ReadReg(FPS27)
T1C28 003:187.971 - 0.022ms returns 0x00000000
T1C28 003:187.989 JLINK_ReadReg(FPS28)
T1C28 003:188.004 - 0.022ms returns 0x00000000
T1C28 003:188.024 JLINK_ReadReg(FPS29)
T1C28 003:188.039 - 0.022ms returns 0x00000000
T1C28 003:188.056 JLINK_ReadReg(FPS30)
T1C28 003:188.071 - 0.022ms returns 0x00000000
T1C28 003:188.089 JLINK_ReadReg(FPS31)
T1C28 003:188.104 - 0.022ms returns 0xFFFFFFFF
T4CC8 003:210.826   JLINK_ReadMemEx(0x00001402, 0x0002 Bytes, ..., Flags = 0x02000000)
T4CC8 003:210.867   CPU_ReadMem(64 bytes @ 0x00001400)
T4CC8 003:211.346    -- Updating DA cache (64 bytes @ 0x00001400)
T4CC8 003:211.373    -- Read from DA cache (2 bytes @ 0x00001402)
T4CC8 003:211.394   Data:  FF F7
T4CC8 003:211.416 - 0.598ms returns 0x02
T4CC8 003:211.438   JLINK_ReadMemEx(0x00001404, 0x003C Bytes, ..., Flags = 0x02000000)
T4CC8 003:211.461    -- Read from DA cache (60 bytes @ 0x00001404)
T4CC8 003:211.483   Data:  09 FF 14 B0 80 BD 00 00 00 00 00 00 84 B0 0A 46 ...
T4CC8 003:211.505 - 0.074ms returns 0x3C
T4CC8 003:211.543   JLINK_ReadMemEx(0x00001404, 0x0002 Bytes, ..., Flags = 0x02000000)
T4CC8 003:211.582    -- Read from DA cache (2 bytes @ 0x00001404)
T4CC8 003:211.602   Data:  09 FF
T4CC8 003:211.623 - 0.087ms returns 0x02
T4CC8 003:211.656   JLINK_ReadMemEx(0x00001406, 0x0002 Bytes, ..., Flags = 0x02000000)
T4CC8 003:211.679    -- Read from DA cache (2 bytes @ 0x00001406)
T4CC8 003:211.700   Data:  14 B0
T4CC8 003:211.721 - 0.071ms returns 0x02
T4CC8 003:211.739   JLINK_ReadMemEx(0x00001408, 0x003C Bytes, ..., Flags = 0x02000000)
T4CC8 003:211.762   CPU_ReadMem(64 bytes @ 0x00001440)
T4CC8 003:212.276    -- Updating DA cache (64 bytes @ 0x00001440)
T4CC8 003:212.301    -- Read from DA cache (60 bytes @ 0x00001408)
T4CC8 003:212.323   Data:  80 BD 00 00 00 00 00 00 84 B0 0A 46 03 46 AD F8 ...
T4CC8 003:212.344 - 0.612ms returns 0x3C
T4CC8 003:212.363   JLINK_ReadMemEx(0x00001408, 0x0002 Bytes, ..., Flags = 0x02000000)
T4CC8 003:212.386    -- Read from DA cache (2 bytes @ 0x00001408)
T4CC8 003:212.408   Data:  80 BD
T4CC8 003:212.428 - 0.072ms returns 0x02
T4CC8 003:212.451   JLINK_ReadMemEx(0x00001408, 0x003C Bytes, ..., Flags = 0x02000000)
T4CC8 003:212.474    -- Read from DA cache (60 bytes @ 0x00001408)
T4CC8 003:212.496   Data:  80 BD 00 00 00 00 00 00 84 B0 0A 46 03 46 AD F8 ...
T4CC8 003:212.538 - 0.094ms returns 0x3C
T4CC8 003:212.556   JLINK_ReadMemEx(0x00001408, 0x0002 Bytes, ..., Flags = 0x02000000)
T4CC8 003:212.599    -- Read from DA cache (2 bytes @ 0x00001408)
T4CC8 003:212.620   Data:  80 BD
T4CC8 003:212.641 - 0.092ms returns 0x02
T4CC8 003:212.658   JLINK_ReadMemEx(0x0000140A, 0x0002 Bytes, ..., Flags = 0x02000000)
T4CC8 003:212.680    -- Read from DA cache (2 bytes @ 0x0000140A)
T4CC8 003:212.701   Data:  00 00
T4CC8 003:212.721 - 0.070ms returns 0x02
T4CC8 003:212.746   JLINK_ReadMemEx(0x0000140A, 0x0002 Bytes, ..., Flags = 0x02000000)
T4CC8 003:212.769    -- Read from DA cache (2 bytes @ 0x0000140A)
T4CC8 003:212.791   Data:  00 00
T4CC8 003:212.812 - 0.072ms returns 0x02
T4CC8 003:212.829   JLINK_ReadMemEx(0x0000140C, 0x003C Bytes, ..., Flags = 0x02000000)
T4CC8 003:212.851    -- Read from DA cache (60 bytes @ 0x0000140C)
T4CC8 003:212.873   Data:  00 00 00 00 84 B0 0A 46 03 46 AD F8 0E 00 8D F8 ...
T4CC8 003:212.893 - 0.071ms returns 0x3C
T4CC8 003:212.910   JLINK_ReadMemEx(0x0000140C, 0x0002 Bytes, ..., Flags = 0x02000000)
T4CC8 003:212.932    -- Read from DA cache (2 bytes @ 0x0000140C)
T4CC8 003:212.953   Data:  00 00
T4CC8 003:212.973 - 0.070ms returns 0x02
T4CC8 003:212.996   JLINK_ReadMemEx(0x0000140C, 0x003C Bytes, ..., Flags = 0x02000000)
T4CC8 003:213.018    -- Read from DA cache (60 bytes @ 0x0000140C)
T4CC8 003:213.041   Data:  00 00 00 00 84 B0 0A 46 03 46 AD F8 0E 00 8D F8 ...
T4CC8 003:213.061 - 0.072ms returns 0x3C
T4CC8 003:213.078   JLINK_ReadMemEx(0x0000140C, 0x0002 Bytes, ..., Flags = 0x02000000)
T4CC8 003:213.100    -- Read from DA cache (2 bytes @ 0x0000140C)
T4CC8 003:213.121   Data:  00 00
T4CC8 003:213.142 - 0.070ms returns 0x02
T4CC8 003:213.159   JLINK_ReadMemEx(0x0000140E, 0x0002 Bytes, ..., Flags = 0x02000000)
T4CC8 003:213.180    -- Read from DA cache (2 bytes @ 0x0000140E)
T4CC8 003:213.201   Data:  00 00
T4CC8 003:213.222 - 0.070ms returns 0x02
T4CC8 003:213.244   JLINK_ReadMemEx(0x0000140E, 0x0002 Bytes, ..., Flags = 0x02000000)
T4CC8 003:213.266    -- Read from DA cache (2 bytes @ 0x0000140E)
T4CC8 003:213.288   Data:  00 00
T4CC8 003:213.309 - 0.072ms returns 0x02
T4CC8 003:213.326   JLINK_ReadMemEx(0x00001410, 0x003C Bytes, ..., Flags = 0x02000000)
T4CC8 003:213.348    -- Read from DA cache (60 bytes @ 0x00001410)
T4CC8 003:213.369   Data:  84 B0 0A 46 03 46 AD F8 0E 00 8D F8 0D 10 BD F9 ...
T4CC8 003:213.390 - 0.070ms returns 0x3C
T4CC8 003:213.407   JLINK_ReadMemEx(0x00001410, 0x0002 Bytes, ..., Flags = 0x02000000)
T4CC8 003:213.428    -- Read from DA cache (2 bytes @ 0x00001410)
T4CC8 003:213.449   Data:  84 B0
T4CC8 003:213.470 - 0.070ms returns 0x02
T4CC8 004:235.521   JLINK_ReadMemEx(0x2002000B, 0x0001 Bytes, ..., Flags = 0x02000000)
T4CC8 004:235.576   CPU_ReadMem(1 bytes @ 0x2002000B)
T4CC8 004:236.020   Data:  AA
T4CC8 004:236.048 - 0.535ms returns 0xFFFFFFFF
T4CC8 004:236.070   JLINK_ReadMemEx(0x2002000B, 0x0001 Bytes, ..., Flags = 0x02000000)
T4CC8 004:236.095   CPU_ReadMem(1 bytes @ 0x2002000B)
T4CC8 004:236.605   Data:  AA
T4CC8 004:236.631 - 0.569ms returns 0xFFFFFFFF
T4CC8 004:236.651   JLINK_ReadMemEx(0x2002000B, 0x0001 Bytes, ..., Flags = 0x02000000)
T4CC8 004:236.676   CPU_ReadMem(1 bytes @ 0x2002000B)
T4CC8 004:237.068   Data:  AA
T4CC8 004:237.111 - 0.467ms returns 0xFFFFFFFF
T4CC8 004:237.131   JLINK_ReadMemEx(0x2002000B, 0x0001 Bytes, ..., Flags = 0x02000000)
T4CC8 004:237.156   CPU_ReadMem(1 bytes @ 0x2002000B)
T4CC8 004:237.516   Data:  AA
T4CC8 004:237.542 - 0.418ms returns 0xFFFFFFFF
T4CC8 004:237.562   JLINK_ReadMemEx(0x2002000B, 0x0001 Bytes, ..., Flags = 0x02000000)
T4CC8 004:237.587   CPU_ReadMem(1 bytes @ 0x2002000B)
T4CC8 004:237.964   Data:  AA
T4CC8 004:237.991 - 0.452ms returns 0xFFFFFFFF
T4CC8 004:238.027   JLINK_ReadMemEx(0x2002000B, 0x0001 Bytes, ..., Flags = 0x02000000)
T4CC8 004:238.052   CPU_ReadMem(1 bytes @ 0x2002000B)
T4CC8 004:238.411   Data:  AA
T4CC8 004:238.444 - 0.425ms returns 0xFFFFFFFF
T4CC8 004:238.564   JLINK_ReadMemEx(0x2002000B, 0x0001 Bytes, ..., Flags = 0x02000000)
T4CC8 004:238.595   CPU_ReadMem(1 bytes @ 0x2002000B)
T4CC8 004:238.936   Data:  AA
T4CC8 004:238.984 - 0.432ms returns 0xFFFFFFFF
T4CC8 004:239.021   JLINK_ReadMemEx(0x2002000B, 0x0001 Bytes, ..., Flags = 0x02000000)
T4CC8 004:239.048   CPU_ReadMem(1 bytes @ 0x2002000B)
T4CC8 004:239.448   Data:  AA
T4CC8 004:239.492 - 0.479ms returns 0xFFFFFFFF
T4CC8 004:239.514   JLINK_ReadMemEx(0x2002000B, 0x0001 Bytes, ..., Flags = 0x02000000)
T4CC8 004:239.541   CPU_ReadMem(1 bytes @ 0x2002000B)
T4CC8 004:239.888   Data:  AA
T4CC8 004:239.915 - 0.408ms returns 0xFFFFFFFF
T4CC8 004:239.935   JLINK_ReadMemEx(0x2002000B, 0x0001 Bytes, ..., Flags = 0x02000000)
T4CC8 004:239.961   CPU_ReadMem(1 bytes @ 0x2002000B)
T4CC8 004:240.261   Data:  AA
T4CC8 004:240.289 - 0.362ms returns 0xFFFFFFFF
T4CC8 004:240.310   JLINK_ReadMemEx(0x2002000B, 0x0001 Bytes, ..., Flags = 0x02000000)
T4CC8 004:240.335   CPU_ReadMem(1 bytes @ 0x2002000B)
T4CC8 004:240.627   Data:  AA
T4CC8 004:240.653 - 0.351ms returns 0xFFFFFFFF
T4CC8 004:240.673   JLINK_ReadMemEx(0x2002000B, 0x0001 Bytes, ..., Flags = 0x02000000)
T4CC8 004:240.699   CPU_ReadMem(1 bytes @ 0x2002000B)
T4CC8 004:241.037   Data:  AA
T4CC8 004:241.065 - 0.399ms returns 0xFFFFFFFF
T4CC8 004:241.136   JLINK_ReadMemEx(0x2002000B, 0x0001 Bytes, ..., Flags = 0x02000000)
T4CC8 004:241.165   CPU_ReadMem(1 bytes @ 0x2002000B)
T4CC8 004:241.472   Data:  AA
T4CC8 004:241.500 - 0.372ms returns 0xFFFFFFFF
T4CC8 004:241.536   JLINK_ReadMemEx(0x2002000B, 0x0001 Bytes, ..., Flags = 0x02000000)
T4CC8 004:241.562   CPU_ReadMem(1 bytes @ 0x2002000B)
T4CC8 004:241.836   Data:  AA
T4CC8 004:241.863 - 0.335ms returns 0xFFFFFFFF
T4CC8 004:241.885   JLINK_ReadMemEx(0x2002000B, 0x0001 Bytes, ..., Flags = 0x02000000)
T4CC8 004:241.926   CPU_ReadMem(1 bytes @ 0x2002000B)
